
**** 05/19/25 12:32:36 ******* PSpice Lite (March 2016) ******* ID# 10813 ****

 ** Profile: "SCHEMATIC1-ps"  [ c:\users\feria\desktop\project\circuits\orcad\project circuit-pspicefiles\schematic1\ps.sim ] 


 ****     CIRCUIT DESCRIPTION


******************************************************************************




** Creating circuit file "ps.cir" 
** WARNING: THIS AUTOMATICALLY GENERATED FILE MAY BE OVERWRITTEN BY SUBSEQUENT SIMULATIONS

*Libraries: 
* Profile Libraries :
* Local Libraries :
* From [PSPICE NETLIST] section of C:\Users\feria\AppData\Roaming\SPB_Data\cdssetup\OrCAD_PSpice\17.2.0\PSpice.ini file:
.lib "nomd.lib" 

*Analysis directives: 
.AC DEC 10000 500 100000
.OPTIONS ADVCONV
.PROBE64 V(alias(*)) I(alias(*)) W(alias(*)) D(alias(*)) NOISE(alias(*)) 
.INC "..\SCHEMATIC1.net" 



**** INCLUDING SCHEMATIC1.net ****
* source PROJECT CIRCUIT
V_V12         0 N08907 10Vdc
R_R2         N02321 N02359  10k  
V_V11         N03332 0 10Vdc
C_C3         0 N02359  10n  
V_V9         0 N03101 10Vdc
V_V10         0 N06321 10Vdc
R_R3         N03421 N03491  10k  
V_V7         N091610 0 10Vdc
R_R6         0 N02568  10k  
R_R5         N02629 N03421  10k  
C_C4         N02321 N02568  1n  
R_R4         N02875 N03421  10k  
V_V8         N03786 0 10Vdc
X_U5         N02359 N02875 N091610 N03101 N02875 LM741
X_U6         0 N03421 N03786 N08907 N03491 LM741
X_U7         N02568 N02629 N03332 N06321 N02629 LM741
V_V13         N02321 0 DC 0Vdc AC 1Vac 

**** RESUMING ps.cir ****
.END

**** 05/19/25 12:32:36 ******* PSpice Lite (March 2016) ******* ID# 10813 ****

 ** Profile: "SCHEMATIC1-ps"  [ c:\users\feria\desktop\project\circuits\orcad\project circuit-pspicefiles\schematic1\ps.sim ] 


 ****     Diode MODEL PARAMETERS


******************************************************************************




               X_U5.x_lm741.dx X_U5.x_lm741.dy X_U6.x_lm741.dx X_U6.x_lm741.dy 
          IS  800.000000E-18  800.000000E-18  800.000000E-18  800.000000E-18 
          RS    1               1.000000E-03    1               1.000000E-03 
         CJO                   10.000000E-12                   10.000000E-12 


               X_U7.x_lm741.dx X_U7.x_lm741.dy 
          IS  800.000000E-18  800.000000E-18 
          RS    1               1.000000E-03 
         CJO                   10.000000E-12 


**** 05/19/25 12:32:36 ******* PSpice Lite (March 2016) ******* ID# 10813 ****

 ** Profile: "SCHEMATIC1-ps"  [ c:\users\feria\desktop\project\circuits\orcad\project circuit-pspicefiles\schematic1\ps.sim ] 


 ****     BJT MODEL PARAMETERS


******************************************************************************




               X_U5.x_lm741.qx X_U6.x_lm741.qx X_U7.x_lm741.qx 
               NPN             NPN             NPN             
       LEVEL    1               1               1            
          IS  800.000000E-18  800.000000E-18  800.000000E-18 
          BF   93.75           93.75           93.75         
          NF    1               1               1            
          BR    1               1               1            
          NR    1               1               1            
         ISS    0               0               0            
          RE    0               0               0            
          RC    0               0               0            
         CJE    0               0               0            
         VJE     .75             .75             .75         
         CJC    0               0               0            
         VJC     .75             .75             .75         
         MJC     .33             .33             .33         
        XCJC    1               1               1            
         CJS    0               0               0            
         VJS     .75             .75             .75         
          KF    0               0               0            
          AF    1               1               1            
          CN    2.42            2.42            2.42         
           D     .87             .87             .87         


**** 05/19/25 12:32:36 ******* PSpice Lite (March 2016) ******* ID# 10813 ****

 ** Profile: "SCHEMATIC1-ps"  [ c:\users\feria\desktop\project\circuits\orcad\project circuit-pspicefiles\schematic1\ps.sim ] 


 ****     SMALL SIGNAL BIAS SOLUTION       TEMPERATURE =   27.000 DEG C


******************************************************************************



 NODE   VOLTAGE     NODE   VOLTAGE     NODE   VOLTAGE     NODE   VOLTAGE


(N02321)    0.0000 (N02359)-797.3E-06 (N02568)-797.3E-06 (N02629)-778.0E-06     

(N02875)-778.0E-06 (N03101)  -10.0000 (N03332)   10.0000 (N03421) 19.24E-06     

(N03491)     .0024 (N03786)   10.0000 (N06321)  -10.0000 (N08907)  -10.0000     

(N091610)   10.0000                   (X_U5.x_lm741.6) 73.05E-09                

(X_U5.x_lm741.7)-778.0E-06            (X_U5.x_lm741.8)-778.0E-06                

(X_U5.x_lm741.9)    0.0000            (X_U6.x_lm741.6)-231.0E-09                

(X_U6.x_lm741.7)     .0024            (X_U6.x_lm741.8)     .0024                

(X_U6.x_lm741.9)    0.0000            (X_U7.x_lm741.6) 73.05E-09                

(X_U7.x_lm741.7)-778.0E-06            (X_U7.x_lm741.8)-778.0E-06                

(X_U7.x_lm741.9)    0.0000            (X_U5.x_lm741.10)    -.6085               

(X_U5.x_lm741.11)    9.9603           (X_U5.x_lm741.12)    9.9603               

(X_U5.x_lm741.13)    -.5946           (X_U5.x_lm741.14)    -.5946               

(X_U5.x_lm741.53)    9.0000           (X_U5.x_lm741.54)   -9.0000               

(X_U5.x_lm741.90) 42.84E-09           (X_U5.x_lm741.91)   40.0000               

(X_U5.x_lm741.92)  -40.0000           (X_U5.x_lm741.99)    0.0000               

(X_U6.x_lm741.10)    -.6077           (X_U6.x_lm741.11)    9.9603               

(X_U6.x_lm741.12)    9.9603           (X_U6.x_lm741.13)    -.5938               

(X_U6.x_lm741.14)    -.5938           (X_U6.x_lm741.53)    9.0000               

(X_U6.x_lm741.54)   -9.0000           (X_U6.x_lm741.90) 239.2E-06               

(X_U6.x_lm741.91)   40.0000           (X_U6.x_lm741.92)  -40.0000               

(X_U6.x_lm741.99)    0.0000           (X_U7.x_lm741.10)    -.6085               

(X_U7.x_lm741.11)    9.9603           (X_U7.x_lm741.12)    9.9603               

(X_U7.x_lm741.13)    -.5946           (X_U7.x_lm741.14)    -.5946               

(X_U7.x_lm741.53)    9.0000           (X_U7.x_lm741.54)   -9.0000               

(X_U7.x_lm741.90) 42.84E-09           (X_U7.x_lm741.91)   40.0000               

(X_U7.x_lm741.92)  -40.0000           (X_U7.x_lm741.99)    0.0000           




    VOLTAGE SOURCE CURRENTS
    NAME         CURRENT

    V_V12       -1.116E-03
    V_V11       -1.116E-03
    V_V9        -1.116E-03
    V_V10       -1.116E-03
    V_V7        -1.116E-03
    V_V8        -1.116E-03
    V_V13       -7.973E-08
    X_U5.x_lm741.vb   7.305E-13
    X_U5.x_lm741.vc   9.002E-12
    X_U5.x_lm741.ve   1.023E-11
    X_U5.x_lm741.vlim   4.284E-11
    X_U5.x_lm741.vlp  -4.000E-11
    X_U5.x_lm741.vln  -4.000E-11
    X_U6.x_lm741.vb  -2.310E-12
    X_U6.x_lm741.vc   8.998E-12
    X_U6.x_lm741.ve   1.024E-11
    X_U6.x_lm741.vlim   2.392E-07
    X_U6.x_lm741.vlp  -4.000E-11
    X_U6.x_lm741.vln  -4.000E-11
    X_U7.x_lm741.vb   7.305E-13
    X_U7.x_lm741.vc   9.002E-12
    X_U7.x_lm741.ve   1.023E-11
    X_U7.x_lm741.vlim   4.284E-11
    X_U7.x_lm741.vlp  -4.000E-11
    X_U7.x_lm741.vln  -4.000E-11

    TOTAL POWER DISSIPATION   6.70E-02  WATTS



          JOB CONCLUDED

**** 05/19/25 12:32:36 ******* PSpice Lite (March 2016) ******* ID# 10813 ****

 ** Profile: "SCHEMATIC1-ps"  [ c:\users\feria\desktop\project\circuits\orcad\project circuit-pspicefiles\schematic1\ps.sim ] 


 ****     JOB STATISTICS SUMMARY


******************************************************************************



  Total job time (using Solver 1)   =        1.66
